T5604 000:004.147   SEGGER J-Link V7.64 Log File
T5604 000:004.253   DLL Compiled: Apr  1 2022 16:04:43
T5604 000:004.258   Logging started @ 2025-10-08 06:37
T5604 000:004.262 - 4.264ms
T5604 000:004.271 JLINK_SetWarnOutHandler(...)
T5604 000:004.278 - 0.008ms
T5604 000:004.283 JLINK_OpenEx(...)
T5604 000:006.993   Firmware: J-Link ARM-OB STM32 compiled Aug 22 2012 19:52:04
T5604 000:007.776   Firmware: J-Link ARM-OB STM32 compiled Aug 22 2012 19:52:04
T5604 000:011.450   Hardware: V7.00
T5604 000:011.465   S/N: 20090928
T5604 000:011.471   OEM: SEGGER
T5604 000:011.476   Feature(s): JFlash, RDI, GDB, FlashDL, FlashBP
T5604 000:013.142   TELNET listener socket opened on port 19021
T5604 000:013.236   WEBSRV WEBSRV_Init(): Starting webserver thread(s)
T5604 000:013.427   WEBSRV Webserver running on local port 19080
T5604 000:017.740 - 13.467ms returns "O.K."
T5604 000:017.768 JLINK_GetEmuCaps()
T5604 000:017.774 - 0.007ms returns 0x88EA5833
T5604 000:017.801 JLINK_TIF_GetAvailable(...)
T5604 000:018.247 - 0.448ms
T5604 000:018.253 JLINK_SetErrorOutHandler(...)
T5604 000:018.257 - 0.006ms
T5604 000:018.278 JLINK_ExecCommand("ProjectFile = "D:\Desktop\test0.00\projects\ble\ble_multi_role\ble_app_uart_at\Keil_5\JLinkSettings.ini"", ...). 
T5604 000:026.579 - 8.309ms returns 0x00
T5604 000:030.111 JLINK_ExecCommand("Device = ARMCM4_FP", ...). 
T5604 000:032.840   Device "CORTEX-M4" selected.
T5604 000:033.180 - 3.050ms returns 0x00
T5604 000:033.194 JLINK_ExecCommand("DisableConnectionTimeout", ...). 
T5604 000:033.201 - 0.003ms returns 0x01
T5604 000:033.207 JLINK_GetHardwareVersion()
T5604 000:033.211 - 0.006ms returns 70000
T5604 000:033.220 JLINK_GetDLLVersion()
T5604 000:033.224 - 0.006ms returns 76400
T5604 000:033.229 JLINK_GetOEMString(...)
T5604 000:033.234 JLINK_GetFirmwareString(...)
T5604 000:033.238 - 0.006ms
T5604 000:040.413 JLINK_GetDLLVersion()
T5604 000:040.427 - 0.016ms returns 76400
T5604 000:040.433 JLINK_GetCompileDateTime()
T5604 000:040.437 - 0.005ms
T5604 000:043.728 JLINK_GetFirmwareString(...)
T5604 000:043.743 - 0.016ms
T5604 000:046.981 JLINK_GetHardwareVersion()
T5604 000:047.008 - 0.028ms returns 70000
T5604 000:049.488 JLINK_GetSN()
T5604 000:049.503 - 0.017ms returns 20090928
T5604 000:051.843 JLINK_GetOEMString(...)
T5604 000:056.564 JLINK_TIF_Select(JLINKARM_TIF_SWD)
T5604 000:058.170 - 1.614ms returns 0x00
T5604 000:058.184 JLINK_HasError()
T5604 000:058.201 JLINK_SetSpeed(5000)
T5604 000:058.672 - 0.479ms
T5604 000:058.687 JLINK_GetId()
T5604 000:065.207   Found SW-DP with ID 0x2BA01477
T5604 000:074.060   Old FW that does not support reading DPIDR via DAP jobs
T5604 000:085.155   DPv0 detected
T5604 000:087.554   CoreSight SoC-400 or earlier
T5604 000:090.461   Scanning AP map to find all available APs
T5604 000:098.654   AP[1]: Stopped AP scan as end of AP map has been reached
T5604 000:101.074   AP[0]: AHB-AP (IDR: 0x24770011)
T5604 000:103.613   Iterating through AP map to find AHB-AP to use
T5604 000:115.196   AP[0]: Core found
T5604 000:117.593   AP[0]: AHB-AP ROM base: 0xE00FF000
T5604 000:124.467   CPUID register: 0x410FC241. Implementer code: 0x41 (ARM)
T5604 000:126.754   Found Cortex-M4 r0p1, Little endian.
T5604 000:229.546   -- Max. mem block: 0x00002C18
T5604 000:230.297   CPU_ReadMem(4 bytes @ 0xE000EDF0)
T5604 000:231.242   CPU_WriteMem(4 bytes @ 0xE000EDF0)
T5604 000:232.179   CPU_ReadMem(4 bytes @ 0xE0002000)
T5604 000:236.007   FPUnit: 6 code (BP) slots and 2 literal slots
T5604 000:236.027   CPU_ReadMem(4 bytes @ 0xE000EDFC)
T5604 000:236.822   CPU_WriteMem(4 bytes @ 0xE000EDFC)
T5604 000:237.654   CPU_ReadMem(4 bytes @ 0xE0001000)
T5604 000:238.497   CPU_WriteMem(4 bytes @ 0xE0001000)
T5604 000:239.240   CPU_ReadMem(4 bytes @ 0xE000ED88)
T5604 000:240.051   CPU_WriteMem(4 bytes @ 0xE000ED88)
T5604 000:240.861   CPU_ReadMem(4 bytes @ 0xE000ED88)
T5604 000:241.480   CPU_WriteMem(4 bytes @ 0xE000ED88)
T5604 000:244.822   CoreSight components:
T5604 000:247.252   ROMTbl[0] @ E00FF000
T5604 000:247.269   CPU_ReadMem(64 bytes @ 0xE00FF000)
T5604 000:248.681   CPU_ReadMem(32 bytes @ 0xE000EFE0)
T5604 000:252.071   [0][0]: E000E000 CID B105E00D PID 000BB00C SCS-M7
T5604 000:252.084   CPU_ReadMem(32 bytes @ 0xE0001FE0)
T5604 000:255.417   [0][1]: E0001000 CID B105E00D PID 003BB002 DWT
T5604 000:255.429   CPU_ReadMem(32 bytes @ 0xE0002FE0)
T5604 000:259.003   [0][2]: E0002000 CID B105E00D PID 002BB003 FPB
T5604 000:259.018   CPU_ReadMem(32 bytes @ 0xE0000FE0)
T5604 000:263.032   [0][3]: E0000000 CID B105E00D PID 003BB001 ITM
T5604 000:263.056   CPU_ReadMem(32 bytes @ 0xE0040FE0)
T5604 000:266.457   [0][4]: E0040000 CID B105900D PID 000BB9A1 TPIU
T5604 000:267.436 - 208.753ms returns 0x2BA01477
T5604 000:267.451 JLINK_GetDLLVersion()
T5604 000:267.455 - 0.006ms returns 76400
T5604 000:267.463 JLINK_CORE_GetFound()
T5604 000:267.467 - 0.006ms returns 0xE0000FF
T5604 000:267.473 JLINK_GetDebugInfo(0x100 = JLINKARM_ROM_TABLE_ADDR_INDEX)
T5604 000:267.478   Value=0xE00FF000
T5604 000:267.484 - 0.012ms returns 0
T5604 000:269.874 JLINK_GetDebugInfo(0x100 = JLINKARM_ROM_TABLE_ADDR_INDEX)
T5604 000:269.886   Value=0xE00FF000
T5604 000:269.892 - 0.019ms returns 0
T5604 000:269.897 JLINK_GetDebugInfo(0x101 = JLINKARM_DEBUG_INFO_ETM_ADDR_INDEX)
T5604 000:269.901   Value=0x00000000
T5604 000:269.906 - 0.011ms returns 0
T5604 000:269.920 JLINK_ReadMemEx(0xE0041FF0, 0x10 Bytes, Flags = 0x02000004)
T5604 000:269.951   CPU_ReadMem(16 bytes @ 0xE0041FF0)
T5604 000:270.889   Data:  00 00 00 00 00 00 00 00 00 00 00 00 00 00 00 00
T5604 000:270.898 - 0.981ms returns 16 (0x10)
T5604 000:270.906 JLINK_GetDebugInfo(0x102 = JLINKARM_DEBUG_INFO_MTB_ADDR_INDEX)
T5604 000:270.910   Value=0x00000000
T5604 000:270.916 - 0.012ms returns 0
T5604 000:270.921 JLINK_GetDebugInfo(0x103 = JLINKARM_DEBUG_INFO_TPIU_ADDR_INDEX)
T5604 000:270.925   Value=0xE0040000
T5604 000:270.932 - 0.012ms returns 0
T5604 000:270.937 JLINK_GetDebugInfo(0x104 = JLINKARM_DEBUG_INFO_ITM_ADDR_INDEX)
T5604 000:270.941   Value=0xE0000000
T5604 000:270.947 - 0.012ms returns 0
T5604 000:270.952 JLINK_GetDebugInfo(0x105 = JLINKARM_DEBUG_INFO_DWT_ADDR_INDEX)
T5604 000:270.955   Value=0xE0001000
T5604 000:270.961 - 0.010ms returns 0
T5604 000:270.965 JLINK_GetDebugInfo(0x106 = JLINKARM_DEBUG_INFO_FPB_ADDR_INDEX)
T5604 000:270.971   Value=0xE0002000
T5604 000:270.977 - 0.013ms returns 0
T5604 000:270.981 JLINK_GetDebugInfo(0x107 = JLINKARM_DEBUG_INFO_NVIC_ADDR_INDEX)
T5604 000:270.985   Value=0xE000E000
T5604 000:270.991 - 0.011ms returns 0
T5604 000:270.997 JLINK_GetDebugInfo(0x10C = JLINKARM_DEBUG_INFO_DBG_ADDR_INDEX)
T5604 000:271.001   Value=0xE000EDF0
T5604 000:271.006 - 0.011ms returns 0
T5604 000:271.011 JLINK_GetDebugInfo(0x01 = Unknown)
T5604 000:271.015   Value=0x00000001
T5604 000:271.020 - 0.011ms returns 0
T5604 000:271.025 JLINK_ReadMemU32(0xE000ED00, 0x1 Items)
T5604 000:271.037   CPU_ReadMem(4 bytes @ 0xE000ED00)
T5604 000:271.823   Data:  41 C2 0F 41
T5604 000:271.831   Debug reg: CPUID
T5604 000:271.837 - 0.813ms returns 1 (0x1)
T5604 000:271.843 JLINK_GetDebugInfo(0x10F = JLINKARM_DEBUG_INFO_HAS_CORTEX_M_SECURITY_EXT_INDEX)
T5604 000:271.848   Value=0x00000000
T5604 000:271.853 - 0.011ms returns 0
T5604 000:271.859 JLINK_HasError()
T5604 000:271.864 JLINK_SetResetType(JLINKARM_CM3_RESET_TYPE_NORMAL)
T5604 000:271.868 - 0.006ms returns JLINKARM_CM3_RESET_TYPE_NORMAL
T5604 000:271.873 JLINK_Reset()
T5604 000:271.898   CPU is running
T5604 000:271.904   CPU_WriteMem(4 bytes @ 0xE000EDF0)
T5604 000:272.650   CPU is running
T5604 000:272.665   CPU_WriteMem(4 bytes @ 0xE000EDFC)
T5604 000:275.844   Reset: Halt core after reset via DEMCR.VC_CORERESET.
T5604 000:279.687   Reset: Reset device via AIRCR.SYSRESETREQ.
T5604 000:279.710   CPU is running
T5604 000:279.719   CPU_WriteMem(4 bytes @ 0xE000ED0C)
T5604 000:334.307   CPU_ReadMem(4 bytes @ 0xE000EDF0)
T5604 000:335.161   CPU_ReadMem(4 bytes @ 0xE000EDF0)
T5604 000:336.027   CPU is running
T5604 000:336.042   CPU_WriteMem(4 bytes @ 0xE000EDF0)
T5604 000:336.904   CPU is running
T5604 000:336.921   CPU_WriteMem(4 bytes @ 0xE000EDFC)
T5604 000:342.871   CPU_ReadMem(4 bytes @ 0xE000EDF0)
T5604 000:347.510   CPU_WriteMem(4 bytes @ 0xE0002000)
T5604 000:348.230   CPU_ReadMem(4 bytes @ 0xE000EDFC)
T5604 000:348.918   CPU_ReadMem(4 bytes @ 0xE0001000)
T5604 000:349.617 - 77.761ms
T5604 000:349.650 JLINK_Halt()
T5604 000:349.654 - 0.006ms returns 0x00
T5604 000:349.660 JLINK_ReadMemU32(0xE000EDF0, 0x1 Items)
T5604 000:349.672   CPU_ReadMem(4 bytes @ 0xE000EDF0)
T5604 000:350.415   Data:  03 00 03 00
T5604 000:350.429   Debug reg: DHCSR
T5604 000:350.441 - 0.783ms returns 1 (0x1)
T5604 000:350.463 JLINK_WriteU32_64(0xE000EDF0, 0xA05F0003)
T5604 000:350.468   Debug reg: DHCSR
T5604 000:350.753   CPU_WriteMem(4 bytes @ 0xE000EDF0)
T5604 000:351.502 - 1.046ms returns 0 (0x00000000)
T5604 000:351.516 JLINK_WriteU32_64(0xE000EDFC, 0x01000000)
T5604 000:351.521   Debug reg: DEMCR
T5604 000:351.531   CPU_WriteMem(4 bytes @ 0xE000EDFC)
T5604 000:352.263 - 0.749ms returns 0 (0x00000000)
T5604 000:362.422 JLINK_GetHWStatus(...)
T5604 000:363.008 - 0.594ms returns 0
T5604 000:369.926 JLINK_GetNumBPUnits(Type = 0xFFFFFF00)
T5604 000:369.940 - 0.015ms returns 0x06
T5604 000:369.945 JLINK_GetNumBPUnits(Type = 0xF0)
T5604 000:369.950 - 0.006ms returns 0x2000
T5604 000:369.956 JLINK_GetNumWPUnits()
T5604 000:369.960 - 0.005ms returns 4
T5604 000:376.594 JLINK_GetSpeed()
T5604 000:376.604 - 0.012ms returns 4000
T5604 000:384.961 JLINK_ReadMemU32(0xE000E004, 0x1 Items)
T5604 000:384.995   CPU_ReadMem(4 bytes @ 0xE000E004)
T5604 000:385.864   Data:  01 00 00 00
T5604 000:385.876 - 0.917ms returns 1 (0x1)
T5604 000:385.883 JLINK_ReadMemU32(0xE000E004, 0x1 Items)
T5604 000:385.891   CPU_ReadMem(4 bytes @ 0xE000E004)
T5604 000:386.753   Data:  01 00 00 00
T5604 000:386.765 - 0.884ms returns 1 (0x1)
T5604 000:386.772 JLINK_WriteMemEx(0xE0001000, 0x0000001C Bytes, Flags = 0x02000004)
T5604 000:386.778   Data:  01 00 00 00 00 00 00 00 00 00 00 00 00 00 00 00 ...
T5604 000:386.790   CPU_WriteMem(28 bytes @ 0xE0001000)
T5604 000:387.998 - 1.234ms returns 0x1C
T5604 000:388.015 JLINK_Halt()
T5604 000:388.020 - 0.006ms returns 0x00
T5604 000:388.025 JLINK_IsHalted()
T5604 000:388.030 - 0.006ms returns TRUE
T5604 000:391.709 JLINK_WriteMem(0x30000000, 0x1F94 Bytes, ...)
T5604 000:391.717   Data:  00 BE 0A E0 0D 78 2D 06 68 40 08 24 40 00 00 D3 ...
T5604 000:391.919   CPU_WriteMem(8084 bytes @ 0x30000000)
T5604 000:483.801 - 92.107ms returns 0x1F94
T5604 000:483.860 JLINK_HasError()
T5604 000:483.869 JLINK_WriteReg(R0, 0x00200000)
T5604 000:483.882 - 0.015ms returns 0
T5604 000:483.887 JLINK_WriteReg(R1, 0x00B71B00)
T5604 000:483.892 - 0.006ms returns 0
T5604 000:483.897 JLINK_WriteReg(R2, 0x00000001)
T5604 000:483.901 - 0.006ms returns 0
T5604 000:483.907 JLINK_WriteReg(R3, 0x00000000)
T5604 000:483.911 - 0.006ms returns 0
T5604 000:483.916 JLINK_WriteReg(R4, 0x00000000)
T5604 000:483.920 - 0.006ms returns 0
T5604 000:483.925 JLINK_WriteReg(R5, 0x00000000)
T5604 000:483.930 - 0.006ms returns 0
T5604 000:483.935 JLINK_WriteReg(R6, 0x00000000)
T5604 000:483.939 - 0.006ms returns 0
T5604 000:483.944 JLINK_WriteReg(R7, 0x00000000)
T5604 000:483.948 - 0.006ms returns 0
T5604 000:483.953 JLINK_WriteReg(R8, 0x00000000)
T5604 000:483.965 - 0.013ms returns 0
T5604 000:483.970 JLINK_WriteReg(R9, 0x30001E88)
T5604 000:483.974 - 0.006ms returns 0
T5604 000:483.979 JLINK_WriteReg(R10, 0x00000000)
T5604 000:483.983 - 0.006ms returns 0
T5604 000:483.988 JLINK_WriteReg(R11, 0x00000000)
T5604 000:483.993 - 0.006ms returns 0
T5604 000:483.998 JLINK_WriteReg(R12, 0x00000000)
T5604 000:484.002 - 0.006ms returns 0
T5604 000:484.007 JLINK_WriteReg(R13 (SP), 0x3000F000)
T5604 000:484.014 - 0.008ms returns 0
T5604 000:484.019 JLINK_WriteReg(R14, 0x30000001)
T5604 000:484.023 - 0.006ms returns 0
T5604 000:484.028 JLINK_WriteReg(R15 (PC), 0x30000038)
T5604 000:484.036 - 0.010ms returns 0
T5604 000:484.041 JLINK_WriteReg(XPSR, 0x01000000)
T5604 000:484.049 - 0.010ms returns 0
T5604 000:484.055 JLINK_WriteReg(MSP, 0x3000F000)
T5604 000:484.059 - 0.006ms returns 0
T5604 000:484.064 JLINK_WriteReg(PSP, 0x3000F000)
T5604 000:484.069 - 0.006ms returns 0
T5604 000:484.074 JLINK_WriteReg(CFBP, 0x00000000)
T5604 000:484.078 - 0.006ms returns 0
T5604 000:484.083 JLINK_SetBPEx(Addr = 0x30000000, Type = 0xFFFFFFF2)
T5604 000:484.097   CPU_ReadMem(4 bytes @ 0x30000000)
T5604 000:484.793   CPU_WriteMem(4 bytes @ 0x30000000)
T5604 000:485.554   CPU_ReadMem(4 bytes @ 0x30000000)
T5604 000:486.178   CPU_WriteMem(4 bytes @ 0x30000000)
T5604 000:486.834   CPU_ReadMem(2 bytes @ 0x30000000)
T5604 000:487.475 - 3.397ms returns 0x00000001
T5604 000:487.486 JLINK_Go()
T5604 000:487.493   CPU_WriteMem(2 bytes @ 0x30000000)
T5604 000:488.148   CPU_ReadMem(4 bytes @ 0xE0001000)
T5604 000:488.799   CPU_WriteMem(4 bytes @ 0xE0002008)
T5604 000:488.807   CPU_WriteMem(4 bytes @ 0xE000200C)
T5604 000:488.814   CPU_WriteMem(4 bytes @ 0xE0002010)
T5604 000:488.820   CPU_WriteMem(4 bytes @ 0xE0002014)
T5604 000:488.826   CPU_WriteMem(4 bytes @ 0xE0002018)
T5604 000:488.832   CPU_WriteMem(4 bytes @ 0xE000201C)
T5604 000:491.453   CPU_WriteMem(4 bytes @ 0xE0001004)
T5604 000:495.610 - 8.134ms
T5604 000:495.626 JLINK_IsHalted()
T5604 000:496.241 - 0.618ms returns FALSE
T5604 000:496.249 JLINK_HasError()
T5604 000:507.706 JLINK_IsHalted()
T5604 000:511.238   CPU_ReadMem(2 bytes @ 0x30000000)
T5604 000:511.927 - 4.246ms returns TRUE
T5604 000:511.966 JLINK_ReadReg(R15 (PC))
T5604 000:511.974 - 0.010ms returns 0x30000000
T5604 000:511.981 JLINK_ClrBPEx(BPHandle = 0x00000001)
T5604 000:511.986 - 0.007ms returns 0x00
T5604 000:511.992 JLINK_ReadReg(R0)
T5604 000:511.997 - 0.006ms returns 0x00000000
T5604 000:512.359 JLINK_HasError()
T5604 000:512.372 JLINK_WriteReg(R0, 0x01002000)
T5604 000:512.379 - 0.008ms returns 0
T5604 000:512.384 JLINK_WriteReg(R1, 0x00001000)
T5604 000:512.389 - 0.007ms returns 0
T5604 000:512.394 JLINK_WriteReg(R2, 0x000000FF)
T5604 000:512.399 - 0.006ms returns 0
T5604 000:512.403 JLINK_WriteReg(R3, 0x00000000)
T5604 000:512.408 - 0.006ms returns 0
T5604 000:512.413 JLINK_WriteReg(R4, 0x00000000)
T5604 000:512.417 - 0.006ms returns 0
T5604 000:512.422 JLINK_WriteReg(R5, 0x00000000)
T5604 000:512.426 - 0.006ms returns 0
T5604 000:512.431 JLINK_WriteReg(R6, 0x00000000)
T5604 000:512.436 - 0.006ms returns 0
T5604 000:512.441 JLINK_WriteReg(R7, 0x00000000)
T5604 000:512.445 - 0.006ms returns 0
T5604 000:512.450 JLINK_WriteReg(R8, 0x00000000)
T5604 000:512.454 - 0.006ms returns 0
T5604 000:512.459 JLINK_WriteReg(R9, 0x30001E88)
T5604 000:512.463 - 0.006ms returns 0
T5604 000:512.468 JLINK_WriteReg(R10, 0x00000000)
T5604 000:512.473 - 0.006ms returns 0
T5604 000:512.478 JLINK_WriteReg(R11, 0x00000000)
T5604 000:512.482 - 0.006ms returns 0
T5604 000:512.487 JLINK_WriteReg(R12, 0x00000000)
T5604 000:512.491 - 0.006ms returns 0
T5604 000:512.496 JLINK_WriteReg(R13 (SP), 0x3000F000)
T5604 000:512.501 - 0.006ms returns 0
T5604 000:512.506 JLINK_WriteReg(R14, 0x30000001)
T5604 000:512.511 - 0.006ms returns 0
T5604 000:512.516 JLINK_WriteReg(R15 (PC), 0x30000020)
T5604 000:512.520 - 0.006ms returns 0
T5604 000:512.525 JLINK_WriteReg(XPSR, 0x01000000)
T5604 000:512.530 - 0.006ms returns 0
T5604 000:512.535 JLINK_WriteReg(MSP, 0x3000F000)
T5604 000:512.540 - 0.006ms returns 0
T5604 000:512.545 JLINK_WriteReg(PSP, 0x3000F000)
T5604 000:512.549 - 0.006ms returns 0
T5604 000:512.554 JLINK_WriteReg(CFBP, 0x00000000)
T5604 000:512.558 - 0.006ms returns 0
T5604 000:512.563 JLINK_SetBPEx(Addr = 0x30000000, Type = 0xFFFFFFF2)
T5604 000:512.569 - 0.007ms returns 0x00000002
T5604 000:512.575 JLINK_Go()
T5604 000:512.585   CPU_ReadMem(4 bytes @ 0xE0001000)
T5604 000:516.520 - 3.956ms
T5604 000:516.538 JLINK_IsHalted()
T5604 000:520.013   CPU_ReadMem(2 bytes @ 0x30000000)
T5604 000:520.665 - 4.131ms returns TRUE
T5604 000:520.674 JLINK_ReadReg(R15 (PC))
T5604 000:520.681 - 0.009ms returns 0x30000000
T5604 000:520.686 JLINK_ClrBPEx(BPHandle = 0x00000002)
T5604 000:520.743 - 0.059ms returns 0x00
T5604 000:520.749 JLINK_ReadReg(R0)
T5604 000:520.754 - 0.007ms returns 0x00000001
T5604 000:520.760 JLINK_HasError()
T5604 000:520.765 JLINK_WriteReg(R0, 0x01002000)
T5604 000:520.770 - 0.007ms returns 0
T5604 000:520.775 JLINK_WriteReg(R1, 0x00001000)
T5604 000:520.779 - 0.006ms returns 0
T5604 000:520.784 JLINK_WriteReg(R2, 0x000000FF)
T5604 000:520.789 - 0.006ms returns 0
T5604 000:520.794 JLINK_WriteReg(R3, 0x00000000)
T5604 000:520.798 - 0.006ms returns 0
T5604 000:520.803 JLINK_WriteReg(R4, 0x00000000)
T5604 000:520.807 - 0.006ms returns 0
T5604 000:520.812 JLINK_WriteReg(R5, 0x00000000)
T5604 000:520.816 - 0.006ms returns 0
T5604 000:520.821 JLINK_WriteReg(R6, 0x00000000)
T5604 000:520.826 - 0.006ms returns 0
T5604 000:520.831 JLINK_WriteReg(R7, 0x00000000)
T5604 000:520.835 - 0.006ms returns 0
T5604 000:520.840 JLINK_WriteReg(R8, 0x00000000)
T5604 000:520.844 - 0.006ms returns 0
T5604 000:520.849 JLINK_WriteReg(R9, 0x30001E88)
T5604 000:520.854 - 0.006ms returns 0
T5604 000:520.859 JLINK_WriteReg(R10, 0x00000000)
T5604 000:520.863 - 0.006ms returns 0
T5604 000:520.868 JLINK_WriteReg(R11, 0x00000000)
T5604 000:520.873 - 0.006ms returns 0
T5604 000:520.878 JLINK_WriteReg(R12, 0x00000000)
T5604 000:520.882 - 0.006ms returns 0
T5604 000:520.887 JLINK_WriteReg(R13 (SP), 0x3000F000)
T5604 000:520.891 - 0.006ms returns 0
T5604 000:520.896 JLINK_WriteReg(R14, 0x30000001)
T5604 000:520.901 - 0.006ms returns 0
T5604 000:520.906 JLINK_WriteReg(R15 (PC), 0x30000078)
T5604 000:520.910 - 0.006ms returns 0
T5604 000:520.915 JLINK_WriteReg(XPSR, 0x01000000)
T5604 000:520.920 - 0.006ms returns 0
T5604 000:520.925 JLINK_WriteReg(MSP, 0x3000F000)
T5604 000:520.929 - 0.006ms returns 0
T5604 000:520.934 JLINK_WriteReg(PSP, 0x3000F000)
T5604 000:520.938 - 0.006ms returns 0
T5604 000:520.943 JLINK_WriteReg(CFBP, 0x00000000)
T5604 000:520.948 - 0.006ms returns 0
T5604 000:520.953 JLINK_SetBPEx(Addr = 0x30000000, Type = 0xFFFFFFF2)
T5604 000:520.958 - 0.006ms returns 0x00000003
T5604 000:520.963 JLINK_Go()
T5604 000:520.972   CPU_ReadMem(4 bytes @ 0xE0001000)
T5604 000:524.963 - 4.013ms
T5604 000:524.982 JLINK_IsHalted()
T5604 000:525.559 - 0.580ms returns FALSE
T5604 000:525.567 JLINK_HasError()
T5604 000:527.634 JLINK_IsHalted()
T5604 000:528.253 - 0.627ms returns FALSE
T5604 000:528.266 JLINK_HasError()
T5604 000:529.684 JLINK_IsHalted()
T5604 000:530.457 - 0.776ms returns FALSE
T5604 000:530.465 JLINK_HasError()
T5604 000:531.721 JLINK_IsHalted()
T5604 000:532.463 - 0.747ms returns FALSE
T5604 000:532.474 JLINK_HasError()
T5604 000:533.830 JLINK_IsHalted()
T5604 000:534.572 - 0.751ms returns FALSE
T5604 000:534.588 JLINK_HasError()
T5604 000:535.820 JLINK_IsHalted()
T5604 000:536.420 - 0.609ms returns FALSE
T5604 000:536.435 JLINK_HasError()
T5604 000:538.500 JLINK_IsHalted()
T5604 000:542.015   CPU_ReadMem(2 bytes @ 0x30000000)
T5604 000:542.753 - 4.263ms returns TRUE
T5604 000:542.770 JLINK_ReadReg(R15 (PC))
T5604 000:542.777 - 0.009ms returns 0x30000000
T5604 000:542.783 JLINK_ClrBPEx(BPHandle = 0x00000003)
T5604 000:542.788 - 0.008ms returns 0x00
T5604 000:542.795 JLINK_ReadReg(R0)
T5604 000:542.799 - 0.007ms returns 0x00000000
T5604 000:543.347 JLINK_HasError()
T5604 000:543.359 JLINK_WriteReg(R0, 0x01003000)
T5604 000:543.365 - 0.008ms returns 0
T5604 000:543.370 JLINK_WriteReg(R1, 0x00001000)
T5604 000:543.374 - 0.006ms returns 0
T5604 000:543.379 JLINK_WriteReg(R2, 0x000000FF)
T5604 000:543.384 - 0.006ms returns 0
T5604 000:543.388 JLINK_WriteReg(R3, 0x00000000)
T5604 000:543.393 - 0.006ms returns 0
T5604 000:543.397 JLINK_WriteReg(R4, 0x00000000)
T5604 000:543.402 - 0.006ms returns 0
T5604 000:543.406 JLINK_WriteReg(R5, 0x00000000)
T5604 000:543.410 - 0.006ms returns 0
T5604 000:543.415 JLINK_WriteReg(R6, 0x00000000)
T5604 000:543.419 - 0.006ms returns 0
T5604 000:543.424 JLINK_WriteReg(R7, 0x00000000)
T5604 000:543.428 - 0.006ms returns 0
T5604 000:543.433 JLINK_WriteReg(R8, 0x00000000)
T5604 000:543.443 - 0.011ms returns 0
T5604 000:543.448 JLINK_WriteReg(R9, 0x30001E88)
T5604 000:543.452 - 0.006ms returns 0
T5604 000:543.457 JLINK_WriteReg(R10, 0x00000000)
T5604 000:543.461 - 0.006ms returns 0
T5604 000:543.466 JLINK_WriteReg(R11, 0x00000000)
T5604 000:543.470 - 0.006ms returns 0
T5604 000:543.475 JLINK_WriteReg(R12, 0x00000000)
T5604 000:543.480 - 0.006ms returns 0
T5604 000:543.485 JLINK_WriteReg(R13 (SP), 0x3000F000)
T5604 000:543.490 - 0.006ms returns 0
T5604 000:543.495 JLINK_WriteReg(R14, 0x30000001)
T5604 000:543.499 - 0.006ms returns 0
T5604 000:543.504 JLINK_WriteReg(R15 (PC), 0x30000020)
T5604 000:543.508 - 0.006ms returns 0
T5604 000:543.513 JLINK_WriteReg(XPSR, 0x01000000)
T5604 000:543.517 - 0.006ms returns 0
T5604 000:543.522 JLINK_WriteReg(MSP, 0x3000F000)
T5604 000:543.526 - 0.006ms returns 0
T5604 000:543.531 JLINK_WriteReg(PSP, 0x3000F000)
T5604 000:543.535 - 0.006ms returns 0
T5604 000:543.540 JLINK_WriteReg(CFBP, 0x00000000)
T5604 000:543.545 - 0.006ms returns 0
T5604 000:543.550 JLINK_SetBPEx(Addr = 0x30000000, Type = 0xFFFFFFF2)
T5604 000:543.555 - 0.007ms returns 0x00000004
T5604 000:543.560 JLINK_Go()
T5604 000:543.575   CPU_ReadMem(4 bytes @ 0xE0001000)
T5604 000:547.638 - 4.090ms
T5604 000:547.656 JLINK_IsHalted()
T5604 000:551.181   CPU_ReadMem(2 bytes @ 0x30000000)
T5604 000:551.773 - 4.122ms returns TRUE
T5604 000:551.785 JLINK_ReadReg(R15 (PC))
T5604 000:551.795 - 0.011ms returns 0x30000000
T5604 000:551.801 JLINK_ClrBPEx(BPHandle = 0x00000004)
T5604 000:551.807 - 0.008ms returns 0x00
T5604 000:551.814 JLINK_ReadReg(R0)
T5604 000:551.820 - 0.008ms returns 0x00000001
T5604 000:551.828 JLINK_HasError()
T5604 000:551.835 JLINK_WriteReg(R0, 0x01003000)
T5604 000:551.841 - 0.009ms returns 0
T5604 000:551.848 JLINK_WriteReg(R1, 0x00001000)
T5604 000:551.854 - 0.008ms returns 0
T5604 000:551.860 JLINK_WriteReg(R2, 0x000000FF)
T5604 000:551.866 - 0.008ms returns 0
T5604 000:551.873 JLINK_WriteReg(R3, 0x00000000)
T5604 000:551.878 - 0.008ms returns 0
T5604 000:551.884 JLINK_WriteReg(R4, 0x00000000)
T5604 000:551.890 - 0.008ms returns 0
T5604 000:551.896 JLINK_WriteReg(R5, 0x00000000)
T5604 000:551.902 - 0.008ms returns 0
T5604 000:551.908 JLINK_WriteReg(R6, 0x00000000)
T5604 000:551.914 - 0.008ms returns 0
T5604 000:551.920 JLINK_WriteReg(R7, 0x00000000)
T5604 000:551.926 - 0.008ms returns 0
T5604 000:551.932 JLINK_WriteReg(R8, 0x00000000)
T5604 000:551.938 - 0.008ms returns 0
T5604 000:551.944 JLINK_WriteReg(R9, 0x30001E88)
T5604 000:551.950 - 0.008ms returns 0
T5604 000:551.957 JLINK_WriteReg(R10, 0x00000000)
T5604 000:551.963 - 0.008ms returns 0
T5604 000:551.969 JLINK_WriteReg(R11, 0x00000000)
T5604 000:551.975 - 0.008ms returns 0
T5604 000:551.981 JLINK_WriteReg(R12, 0x00000000)
T5604 000:551.987 - 0.008ms returns 0
T5604 000:551.993 JLINK_WriteReg(R13 (SP), 0x3000F000)
T5604 000:551.999 - 0.008ms returns 0
T5604 000:552.006 JLINK_WriteReg(R14, 0x30000001)
T5604 000:552.011 - 0.008ms returns 0
T5604 000:552.018 JLINK_WriteReg(R15 (PC), 0x30000078)
T5604 000:552.024 - 0.008ms returns 0
T5604 000:552.030 JLINK_WriteReg(XPSR, 0x01000000)
T5604 000:552.036 - 0.008ms returns 0
T5604 000:552.042 JLINK_WriteReg(MSP, 0x3000F000)
T5604 000:552.048 - 0.008ms returns 0
T5604 000:552.055 JLINK_WriteReg(PSP, 0x3000F000)
T5604 000:552.060 - 0.008ms returns 0
T5604 000:552.067 JLINK_WriteReg(CFBP, 0x00000000)
T5604 000:552.072 - 0.008ms returns 0
T5604 000:552.079 JLINK_SetBPEx(Addr = 0x30000000, Type = 0xFFFFFFF2)
T5604 000:552.086 - 0.009ms returns 0x00000005
T5604 000:552.092 JLINK_Go()
T5604 000:552.103   CPU_ReadMem(4 bytes @ 0xE0001000)
T5604 000:557.699 - 5.617ms
T5604 000:557.714 JLINK_IsHalted()
T5604 000:558.283 - 0.584ms returns FALSE
T5604 000:558.302 JLINK_HasError()
T5604 000:560.364 JLINK_IsHalted()
T5604 000:561.044 - 0.688ms returns FALSE
T5604 000:561.058 JLINK_HasError()
T5604 000:562.396 JLINK_IsHalted()
T5604 000:563.033 - 0.644ms returns FALSE
T5604 000:563.047 JLINK_HasError()
T5604 000:564.530 JLINK_IsHalted()
T5604 000:565.172 - 0.650ms returns FALSE
T5604 000:565.186 JLINK_HasError()
T5604 000:566.566 JLINK_IsHalted()
T5604 000:567.243 - 0.686ms returns FALSE
T5604 000:567.257 JLINK_HasError()
T5604 000:568.642 JLINK_IsHalted()
T5604 000:569.262 - 0.631ms returns FALSE
T5604 000:569.280 JLINK_HasError()
T5604 000:570.679 JLINK_IsHalted()
T5604 000:574.209   CPU_ReadMem(2 bytes @ 0x30000000)
T5604 000:574.977 - 4.304ms returns TRUE
T5604 000:574.988 JLINK_ReadReg(R15 (PC))
T5604 000:574.995 - 0.009ms returns 0x30000000
T5604 000:575.001 JLINK_ClrBPEx(BPHandle = 0x00000005)
T5604 000:575.005 - 0.007ms returns 0x00
T5604 000:575.011 JLINK_ReadReg(R0)
T5604 000:575.015 - 0.006ms returns 0x00000000
T5604 000:575.500 JLINK_HasError()
T5604 000:575.510 JLINK_WriteReg(R0, 0x01004000)
T5604 000:575.517 - 0.008ms returns 0
T5604 000:575.522 JLINK_WriteReg(R1, 0x00001000)
T5604 000:575.526 - 0.006ms returns 0
T5604 000:575.531 JLINK_WriteReg(R2, 0x000000FF)
T5604 000:575.535 - 0.006ms returns 0
T5604 000:575.540 JLINK_WriteReg(R3, 0x00000000)
T5604 000:575.545 - 0.007ms returns 0
T5604 000:575.550 JLINK_WriteReg(R4, 0x00000000)
T5604 000:575.554 - 0.006ms returns 0
T5604 000:575.559 JLINK_WriteReg(R5, 0x00000000)
T5604 000:575.563 - 0.007ms returns 0
T5604 000:575.569 JLINK_WriteReg(R6, 0x00000000)
T5604 000:575.573 - 0.006ms returns 0
T5604 000:575.578 JLINK_WriteReg(R7, 0x00000000)
T5604 000:575.582 - 0.006ms returns 0
T5604 000:575.587 JLINK_WriteReg(R8, 0x00000000)
T5604 000:575.591 - 0.006ms returns 0
T5604 000:575.596 JLINK_WriteReg(R9, 0x30001E88)
T5604 000:575.600 - 0.006ms returns 0
T5604 000:575.606 JLINK_WriteReg(R10, 0x00000000)
T5604 000:575.610 - 0.006ms returns 0
T5604 000:575.615 JLINK_WriteReg(R11, 0x00000000)
T5604 000:575.619 - 0.006ms returns 0
T5604 000:575.624 JLINK_WriteReg(R12, 0x00000000)
T5604 000:575.628 - 0.006ms returns 0
T5604 000:575.633 JLINK_WriteReg(R13 (SP), 0x3000F000)
T5604 000:575.638 - 0.006ms returns 0
T5604 000:575.643 JLINK_WriteReg(R14, 0x30000001)
T5604 000:575.647 - 0.006ms returns 0
T5604 000:575.652 JLINK_WriteReg(R15 (PC), 0x30000020)
T5604 000:575.656 - 0.006ms returns 0
T5604 000:575.661 JLINK_WriteReg(XPSR, 0x01000000)
T5604 000:575.666 - 0.006ms returns 0
T5604 000:575.672 JLINK_WriteReg(MSP, 0x3000F000)
T5604 000:575.681 - 0.010ms returns 0
T5604 000:575.686 JLINK_WriteReg(PSP, 0x3000F000)
T5604 000:575.690 - 0.006ms returns 0
T5604 000:575.696 JLINK_WriteReg(CFBP, 0x00000000)
T5604 000:575.700 - 0.006ms returns 0
T5604 000:575.705 JLINK_SetBPEx(Addr = 0x30000000, Type = 0xFFFFFFF2)
T5604 000:575.711 - 0.007ms returns 0x00000006
T5604 000:575.716 JLINK_Go()
T5604 000:575.736   CPU_ReadMem(4 bytes @ 0xE0001000)
T5604 000:580.082 - 4.374ms
T5604 000:580.096 JLINK_IsHalted()
T5604 000:583.785   CPU_ReadMem(2 bytes @ 0x30000000)
T5604 000:584.453 - 4.360ms returns TRUE
T5604 000:584.461 JLINK_ReadReg(R15 (PC))
T5604 000:584.468 - 0.008ms returns 0x30000000
T5604 000:584.473 JLINK_ClrBPEx(BPHandle = 0x00000006)
T5604 000:584.478 - 0.006ms returns 0x00
T5604 000:584.483 JLINK_ReadReg(R0)
T5604 000:584.487 - 0.006ms returns 0x00000001
T5604 000:584.493 JLINK_HasError()
T5604 000:584.498 JLINK_WriteReg(R0, 0x01004000)
T5604 000:584.503 - 0.007ms returns 0
T5604 000:584.508 JLINK_WriteReg(R1, 0x00001000)
T5604 000:584.512 - 0.006ms returns 0
T5604 000:584.517 JLINK_WriteReg(R2, 0x000000FF)
T5604 000:584.522 - 0.006ms returns 0
T5604 000:584.527 JLINK_WriteReg(R3, 0x00000000)
T5604 000:584.531 - 0.006ms returns 0
T5604 000:584.536 JLINK_WriteReg(R4, 0x00000000)
T5604 000:584.540 - 0.006ms returns 0
T5604 000:584.545 JLINK_WriteReg(R5, 0x00000000)
T5604 000:584.549 - 0.006ms returns 0
T5604 000:584.554 JLINK_WriteReg(R6, 0x00000000)
T5604 000:584.559 - 0.006ms returns 0
T5604 000:584.563 JLINK_WriteReg(R7, 0x00000000)
T5604 000:584.568 - 0.006ms returns 0
T5604 000:584.573 JLINK_WriteReg(R8, 0x00000000)
T5604 000:584.578 - 0.006ms returns 0
T5604 000:584.586 JLINK_WriteReg(R9, 0x30001E88)
T5604 000:584.592 - 0.007ms returns 0
T5604 000:584.597 JLINK_WriteReg(R10, 0x00000000)
T5604 000:584.601 - 0.006ms returns 0
T5604 000:584.606 JLINK_WriteReg(R11, 0x00000000)
T5604 000:584.610 - 0.006ms returns 0
T5604 000:584.615 JLINK_WriteReg(R12, 0x00000000)
T5604 000:584.619 - 0.006ms returns 0
T5604 000:584.624 JLINK_WriteReg(R13 (SP), 0x3000F000)
T5604 000:584.629 - 0.006ms returns 0
T5604 000:584.634 JLINK_WriteReg(R14, 0x30000001)
T5604 000:584.638 - 0.006ms returns 0
T5604 000:584.643 JLINK_WriteReg(R15 (PC), 0x30000078)
T5604 000:584.647 - 0.006ms returns 0
T5604 000:584.652 JLINK_WriteReg(XPSR, 0x01000000)
T5604 000:584.656 - 0.006ms returns 0
T5604 000:584.661 JLINK_WriteReg(MSP, 0x3000F000)
T5604 000:584.665 - 0.006ms returns 0
T5604 000:584.670 JLINK_WriteReg(PSP, 0x3000F000)
T5604 000:584.675 - 0.006ms returns 0
T5604 000:584.679 JLINK_WriteReg(CFBP, 0x00000000)
T5604 000:584.684 - 0.006ms returns 0
T5604 000:584.689 JLINK_SetBPEx(Addr = 0x30000000, Type = 0xFFFFFFF2)
T5604 000:584.694 - 0.007ms returns 0x00000007
T5604 000:584.699 JLINK_Go()
T5604 000:584.708   CPU_ReadMem(4 bytes @ 0xE0001000)
T5604 000:588.700 - 4.006ms
T5604 000:588.714 JLINK_IsHalted()
T5604 000:589.293 - 0.582ms returns FALSE
T5604 000:589.303 JLINK_HasError()
T5604 000:590.505 JLINK_IsHalted()
T5604 000:591.090 - 0.592ms returns FALSE
T5604 000:591.101 JLINK_HasError()
T5604 000:592.900 JLINK_IsHalted()
T5604 000:593.471 - 0.573ms returns FALSE
T5604 000:593.478 JLINK_HasError()
T5604 000:594.915 JLINK_IsHalted()
T5604 000:595.473 - 0.566ms returns FALSE
T5604 000:595.486 JLINK_HasError()
T5604 000:596.940 JLINK_IsHalted()
T5604 000:597.537 - 0.604ms returns FALSE
T5604 000:597.549 JLINK_HasError()
T5604 000:598.953 JLINK_IsHalted()
T5604 000:599.646 - 0.701ms returns FALSE
T5604 000:599.660 JLINK_HasError()
T5604 000:602.296 JLINK_IsHalted()
T5604 000:605.818   CPU_ReadMem(2 bytes @ 0x30000000)
T5604 000:606.446 - 4.153ms returns TRUE
T5604 000:606.454 JLINK_ReadReg(R15 (PC))
T5604 000:606.461 - 0.009ms returns 0x30000000
T5604 000:606.467 JLINK_ClrBPEx(BPHandle = 0x00000007)
T5604 000:606.473 - 0.007ms returns 0x00
T5604 000:606.478 JLINK_ReadReg(R0)
T5604 000:606.482 - 0.006ms returns 0x00000000
T5604 000:606.937 JLINK_HasError()
T5604 000:606.948 JLINK_WriteReg(R0, 0x01005000)
T5604 000:606.955 - 0.008ms returns 0
T5604 000:606.960 JLINK_WriteReg(R1, 0x00001000)
T5604 000:606.964 - 0.006ms returns 0
T5604 000:606.969 JLINK_WriteReg(R2, 0x000000FF)
T5604 000:606.973 - 0.006ms returns 0
T5604 000:606.978 JLINK_WriteReg(R3, 0x00000000)
T5604 000:606.982 - 0.005ms returns 0
T5604 000:606.986 JLINK_WriteReg(R4, 0x00000000)
T5604 000:606.990 - 0.005ms returns 0
T5604 000:606.995 JLINK_WriteReg(R5, 0x00000000)
T5604 000:606.999 - 0.005ms returns 0
T5604 000:607.004 JLINK_WriteReg(R6, 0x00000000)
T5604 000:607.008 - 0.006ms returns 0
T5604 000:607.013 JLINK_WriteReg(R7, 0x00000000)
T5604 000:607.017 - 0.006ms returns 0
T5604 000:607.022 JLINK_WriteReg(R8, 0x00000000)
T5604 000:607.026 - 0.006ms returns 0
T5604 000:607.031 JLINK_WriteReg(R9, 0x30001E88)
T5604 000:607.035 - 0.006ms returns 0
T5604 000:607.040 JLINK_WriteReg(R10, 0x00000000)
T5604 000:607.044 - 0.006ms returns 0
T5604 000:607.049 JLINK_WriteReg(R11, 0x00000000)
T5604 000:607.053 - 0.006ms returns 0
T5604 000:607.058 JLINK_WriteReg(R12, 0x00000000)
T5604 000:607.062 - 0.006ms returns 0
T5604 000:607.067 JLINK_WriteReg(R13 (SP), 0x3000F000)
T5604 000:607.072 - 0.006ms returns 0
T5604 000:607.076 JLINK_WriteReg(R14, 0x30000001)
T5604 000:607.081 - 0.006ms returns 0
T5604 000:607.085 JLINK_WriteReg(R15 (PC), 0x30000020)
T5604 000:607.090 - 0.006ms returns 0
T5604 000:607.094 JLINK_WriteReg(XPSR, 0x01000000)
T5604 000:607.099 - 0.006ms returns 0
T5604 000:607.104 JLINK_WriteReg(MSP, 0x3000F000)
T5604 000:607.108 - 0.006ms returns 0
T5604 000:607.112 JLINK_WriteReg(PSP, 0x3000F000)
T5604 000:607.116 - 0.005ms returns 0
T5604 000:607.121 JLINK_WriteReg(CFBP, 0x00000000)
T5604 000:607.174 - 0.055ms returns 0
T5604 000:607.179 JLINK_SetBPEx(Addr = 0x30000000, Type = 0xFFFFFFF2)
T5604 000:607.185 - 0.007ms returns 0x00000008
T5604 000:607.190 JLINK_Go()
T5604 000:607.200   CPU_ReadMem(4 bytes @ 0xE0001000)
T5604 000:611.219 - 4.041ms
T5604 000:611.239 JLINK_IsHalted()
T5604 000:614.875   CPU_ReadMem(2 bytes @ 0x30000000)
T5604 000:615.511 - 4.281ms returns TRUE
T5604 000:615.534 JLINK_ReadReg(R15 (PC))
T5604 000:615.544 - 0.012ms returns 0x30000000
T5604 000:615.602 JLINK_ClrBPEx(BPHandle = 0x00000008)
T5604 000:615.617 - 0.017ms returns 0x00
T5604 000:615.623 JLINK_ReadReg(R0)
T5604 000:615.628 - 0.007ms returns 0x00000001
T5604 000:615.634 JLINK_HasError()
T5604 000:615.640 JLINK_WriteReg(R0, 0x01005000)
T5604 000:615.645 - 0.006ms returns 0
T5604 000:615.650 JLINK_WriteReg(R1, 0x00001000)
T5604 000:615.654 - 0.006ms returns 0
T5604 000:615.659 JLINK_WriteReg(R2, 0x000000FF)
T5604 000:615.663 - 0.006ms returns 0
T5604 000:615.668 JLINK_WriteReg(R3, 0x00000000)
T5604 000:615.672 - 0.006ms returns 0
T5604 000:615.677 JLINK_WriteReg(R4, 0x00000000)
T5604 000:615.681 - 0.006ms returns 0
T5604 000:615.687 JLINK_WriteReg(R5, 0x00000000)
T5604 000:615.691 - 0.006ms returns 0
T5604 000:615.696 JLINK_WriteReg(R6, 0x00000000)
T5604 000:615.700 - 0.006ms returns 0
T5604 000:615.705 JLINK_WriteReg(R7, 0x00000000)
T5604 000:615.709 - 0.006ms returns 0
T5604 000:615.714 JLINK_WriteReg(R8, 0x00000000)
T5604 000:615.718 - 0.006ms returns 0
T5604 000:615.723 JLINK_WriteReg(R9, 0x30001E88)
T5604 000:615.727 - 0.006ms returns 0
T5604 000:615.732 JLINK_WriteReg(R10, 0x00000000)
T5604 000:615.736 - 0.006ms returns 0
T5604 000:615.741 JLINK_WriteReg(R11, 0x00000000)
T5604 000:615.745 - 0.006ms returns 0
T5604 000:615.750 JLINK_WriteReg(R12, 0x00000000)
T5604 000:615.754 - 0.006ms returns 0
T5604 000:615.759 JLINK_WriteReg(R13 (SP), 0x3000F000)
T5604 000:615.764 - 0.006ms returns 0
T5604 000:615.769 JLINK_WriteReg(R14, 0x30000001)
T5604 000:615.773 - 0.006ms returns 0
T5604 000:615.778 JLINK_WriteReg(R15 (PC), 0x30000078)
T5604 000:615.782 - 0.006ms returns 0
T5604 000:615.787 JLINK_WriteReg(XPSR, 0x01000000)
T5604 000:615.792 - 0.006ms returns 0
T5604 000:615.797 JLINK_WriteReg(MSP, 0x3000F000)
T5604 000:615.801 - 0.006ms returns 0
T5604 000:615.806 JLINK_WriteReg(PSP, 0x3000F000)
T5604 000:615.811 - 0.006ms returns 0
T5604 000:615.815 JLINK_WriteReg(CFBP, 0x00000000)
T5604 000:615.820 - 0.006ms returns 0
T5604 000:615.825 JLINK_SetBPEx(Addr = 0x30000000, Type = 0xFFFFFFF2)
T5604 000:615.830 - 0.007ms returns 0x00000009
T5604 000:615.835 JLINK_Go()
T5604 000:615.844   CPU_ReadMem(4 bytes @ 0xE0001000)
T5604 000:619.903 - 4.076ms
T5604 000:619.915 JLINK_IsHalted()
T5604 000:620.519 - 0.611ms returns FALSE
T5604 000:620.532 JLINK_HasError()
T5604 000:622.151 JLINK_IsHalted()
T5604 000:622.755 - 0.607ms returns FALSE
T5604 000:622.762 JLINK_HasError()
T5604 000:624.155 JLINK_IsHalted()
T5604 000:624.750 - 0.598ms returns FALSE
T5604 000:624.757 JLINK_HasError()
T5604 000:626.169 JLINK_IsHalted()
T5604 000:626.798 - 0.632ms returns FALSE
T5604 000:626.805 JLINK_HasError()
T5604 000:628.308 JLINK_IsHalted()
T5604 000:628.957 - 0.657ms returns FALSE
T5604 000:628.970 JLINK_HasError()
T5604 000:630.337 JLINK_IsHalted()
T5604 000:630.992 - 0.663ms returns FALSE
T5604 000:631.005 JLINK_HasError()
T5604 000:633.460 JLINK_IsHalted()
T5604 000:636.955   CPU_ReadMem(2 bytes @ 0x30000000)
T5604 000:637.857 - 4.405ms returns TRUE
T5604 000:637.893 JLINK_ReadReg(R15 (PC))
T5604 000:637.901 - 0.011ms returns 0x30000000
T5604 000:637.909 JLINK_ClrBPEx(BPHandle = 0x00000009)
T5604 000:637.915 - 0.009ms returns 0x00
T5604 000:637.922 JLINK_ReadReg(R0)
T5604 000:637.929 - 0.009ms returns 0x00000000
T5604 000:638.607 JLINK_HasError()
T5604 000:638.622 JLINK_WriteReg(R0, 0x01006000)
T5604 000:638.631 - 0.012ms returns 0
T5604 000:638.638 JLINK_WriteReg(R1, 0x00001000)
T5604 000:638.645 - 0.009ms returns 0
T5604 000:638.656 JLINK_WriteReg(R2, 0x000000FF)
T5604 000:638.665 - 0.012ms returns 0
T5604 000:638.673 JLINK_WriteReg(R3, 0x00000000)
T5604 000:638.679 - 0.009ms returns 0
T5604 000:638.687 JLINK_WriteReg(R4, 0x00000000)
T5604 000:638.693 - 0.009ms returns 0
T5604 000:638.701 JLINK_WriteReg(R5, 0x00000000)
T5604 000:638.708 - 0.009ms returns 0
T5604 000:638.716 JLINK_WriteReg(R6, 0x00000000)
T5604 000:638.722 - 0.009ms returns 0
T5604 000:638.730 JLINK_WriteReg(R7, 0x00000000)
T5604 000:638.736 - 0.009ms returns 0
T5604 000:638.744 JLINK_WriteReg(R8, 0x00000000)
T5604 000:638.751 - 0.010ms returns 0
T5604 000:638.759 JLINK_WriteReg(R9, 0x30001E88)
T5604 000:638.765 - 0.009ms returns 0
T5604 000:638.773 JLINK_WriteReg(R10, 0x00000000)
T5604 000:638.780 - 0.010ms returns 0
T5604 000:638.787 JLINK_WriteReg(R11, 0x00000000)
T5604 000:638.794 - 0.010ms returns 0
T5604 000:638.802 JLINK_WriteReg(R12, 0x00000000)
T5604 000:638.808 - 0.009ms returns 0
T5604 000:638.816 JLINK_WriteReg(R13 (SP), 0x3000F000)
T5604 000:638.823 - 0.010ms returns 0
T5604 000:638.831 JLINK_WriteReg(R14, 0x30000001)
T5604 000:638.838 - 0.009ms returns 0
T5604 000:638.845 JLINK_WriteReg(R15 (PC), 0x30000020)
T5604 000:638.851 - 0.010ms returns 0
T5604 000:638.859 JLINK_WriteReg(XPSR, 0x01000000)
T5604 000:638.866 - 0.010ms returns 0
T5604 000:638.873 JLINK_WriteReg(MSP, 0x3000F000)
T5604 000:638.880 - 0.009ms returns 0
T5604 000:638.887 JLINK_WriteReg(PSP, 0x3000F000)
T5604 000:638.894 - 0.009ms returns 0
T5604 000:638.901 JLINK_WriteReg(CFBP, 0x00000000)
T5604 000:638.909 - 0.010ms returns 0
T5604 000:638.917 JLINK_SetBPEx(Addr = 0x30000000, Type = 0xFFFFFFF2)
T5604 000:638.925 - 0.011ms returns 0x0000000A
T5604 000:638.933 JLINK_Go()
T5604 000:638.947   CPU_ReadMem(4 bytes @ 0xE0001000)
T5604 000:643.489 - 4.566ms
T5604 000:643.511 JLINK_IsHalted()
T5604 000:647.101   CPU_ReadMem(2 bytes @ 0x30000000)
T5604 000:647.799 - 4.296ms returns TRUE
T5604 000:647.819 JLINK_ReadReg(R15 (PC))
T5604 000:647.826 - 0.009ms returns 0x30000000
T5604 000:647.832 JLINK_ClrBPEx(BPHandle = 0x0000000A)
T5604 000:647.855 - 0.024ms returns 0x00
T5604 000:647.860 JLINK_ReadReg(R0)
T5604 000:647.864 - 0.006ms returns 0x00000001
T5604 000:647.870 JLINK_HasError()
T5604 000:647.876 JLINK_WriteReg(R0, 0x01006000)
T5604 000:647.881 - 0.007ms returns 0
T5604 000:647.886 JLINK_WriteReg(R1, 0x00001000)
T5604 000:647.890 - 0.006ms returns 0
T5604 000:647.895 JLINK_WriteReg(R2, 0x000000FF)
T5604 000:647.900 - 0.006ms returns 0
T5604 000:647.905 JLINK_WriteReg(R3, 0x00000000)
T5604 000:647.910 - 0.006ms returns 0
T5604 000:647.917 JLINK_WriteReg(R4, 0x00000000)
T5604 000:647.923 - 0.009ms returns 0
T5604 000:648.028 JLINK_WriteReg(R5, 0x00000000)
T5604 000:648.050 - 0.025ms returns 0
T5604 000:648.058 JLINK_WriteReg(R6, 0x00000000)
T5604 000:648.062 - 0.006ms returns 0
T5604 000:648.067 JLINK_WriteReg(R7, 0x00000000)
T5604 000:648.071 - 0.006ms returns 0
T5604 000:648.076 JLINK_WriteReg(R8, 0x00000000)
T5604 000:648.081 - 0.006ms returns 0
T5604 000:648.085 JLINK_WriteReg(R9, 0x30001E88)
T5604 000:648.090 - 0.006ms returns 0
T5604 000:648.095 JLINK_WriteReg(R10, 0x00000000)
T5604 000:648.099 - 0.006ms returns 0
T5604 000:648.104 JLINK_WriteReg(R11, 0x00000000)
T5604 000:648.108 - 0.006ms returns 0
T5604 000:648.113 JLINK_WriteReg(R12, 0x00000000)
T5604 000:648.117 - 0.006ms returns 0
T5604 000:648.122 JLINK_WriteReg(R13 (SP), 0x3000F000)
T5604 000:648.127 - 0.006ms returns 0
T5604 000:648.131 JLINK_WriteReg(R14, 0x30000001)
T5604 000:648.136 - 0.006ms returns 0
T5604 000:648.141 JLINK_WriteReg(R15 (PC), 0x30000078)
T5604 000:648.145 - 0.006ms returns 0
T5604 000:648.150 JLINK_WriteReg(XPSR, 0x01000000)
T5604 000:648.155 - 0.006ms returns 0
T5604 000:648.159 JLINK_WriteReg(MSP, 0x3000F000)
T5604 000:648.164 - 0.006ms returns 0
T5604 000:648.168 JLINK_WriteReg(PSP, 0x3000F000)
T5604 000:648.173 - 0.006ms returns 0
T5604 000:648.178 JLINK_WriteReg(CFBP, 0x00000000)
T5604 000:648.182 - 0.006ms returns 0
T5604 000:648.190 JLINK_SetBPEx(Addr = 0x30000000, Type = 0xFFFFFFF2)
T5604 000:648.197 - 0.009ms returns 0x0000000B
T5604 000:648.202 JLINK_Go()
T5604 000:648.212   CPU_ReadMem(4 bytes @ 0xE0001000)
T5604 000:652.443 - 4.251ms
T5604 000:652.458 JLINK_IsHalted()
T5604 000:653.068 - 0.612ms returns FALSE
T5604 000:653.075 JLINK_HasError()
T5604 000:654.909 JLINK_IsHalted()
T5604 000:655.580 - 0.675ms returns FALSE
T5604 000:655.589 JLINK_HasError()
T5604 000:656.904 JLINK_IsHalted()
T5604 000:657.514 - 0.614ms returns FALSE
T5604 000:657.521 JLINK_HasError()
T5604 000:658.950 JLINK_IsHalted()
T5604 000:659.643 - 0.702ms returns FALSE
T5604 000:659.658 JLINK_HasError()
T5604 000:660.899 JLINK_IsHalted()
T5604 000:661.596 - 0.708ms returns FALSE
T5604 000:661.613 JLINK_HasError()
T5604 000:663.463 JLINK_IsHalted()
T5604 000:667.165   CPU_ReadMem(2 bytes @ 0x30000000)
T5604 000:668.056 - 4.601ms returns TRUE
T5604 000:668.070 JLINK_ReadReg(R15 (PC))
T5604 000:668.077 - 0.009ms returns 0x30000000
T5604 000:668.083 JLINK_ClrBPEx(BPHandle = 0x0000000B)
T5604 000:668.087 - 0.006ms returns 0x00
T5604 000:668.092 JLINK_ReadReg(R0)
T5604 000:668.096 - 0.006ms returns 0x00000000
T5604 000:668.582 JLINK_HasError()
T5604 000:668.593 JLINK_WriteReg(R0, 0x01007000)
T5604 000:668.599 - 0.008ms returns 0
T5604 000:668.604 JLINK_WriteReg(R1, 0x00001000)
T5604 000:668.608 - 0.006ms returns 0
T5604 000:668.613 JLINK_WriteReg(R2, 0x000000FF)
T5604 000:668.617 - 0.006ms returns 0
T5604 000:668.622 JLINK_WriteReg(R3, 0x00000000)
T5604 000:668.626 - 0.006ms returns 0
T5604 000:668.631 JLINK_WriteReg(R4, 0x00000000)
T5604 000:668.635 - 0.006ms returns 0
T5604 000:668.640 JLINK_WriteReg(R5, 0x00000000)
T5604 000:668.644 - 0.006ms returns 0
T5604 000:668.649 JLINK_WriteReg(R6, 0x00000000)
T5604 000:668.653 - 0.006ms returns 0
T5604 000:668.658 JLINK_WriteReg(R7, 0x00000000)
T5604 000:668.662 - 0.006ms returns 0
T5604 000:668.667 JLINK_WriteReg(R8, 0x00000000)
T5604 000:668.671 - 0.006ms returns 0
T5604 000:668.676 JLINK_WriteReg(R9, 0x30001E88)
T5604 000:668.680 - 0.006ms returns 0
T5604 000:668.685 JLINK_WriteReg(R10, 0x00000000)
T5604 000:668.689 - 0.006ms returns 0
T5604 000:668.693 JLINK_WriteReg(R11, 0x00000000)
T5604 000:668.697 - 0.006ms returns 0
T5604 000:668.702 JLINK_WriteReg(R12, 0x00000000)
T5604 000:668.706 - 0.005ms returns 0
T5604 000:668.711 JLINK_WriteReg(R13 (SP), 0x3000F000)
T5604 000:668.716 - 0.006ms returns 0
T5604 000:668.720 JLINK_WriteReg(R14, 0x30000001)
T5604 000:668.725 - 0.006ms returns 0
T5604 000:668.729 JLINK_WriteReg(R15 (PC), 0x30000020)
T5604 000:668.734 - 0.006ms returns 0
T5604 000:668.738 JLINK_WriteReg(XPSR, 0x01000000)
T5604 000:668.743 - 0.006ms returns 0
T5604 000:668.747 JLINK_WriteReg(MSP, 0x3000F000)
T5604 000:668.752 - 0.006ms returns 0
T5604 000:668.757 JLINK_WriteReg(PSP, 0x3000F000)
T5604 000:668.761 - 0.006ms returns 0
T5604 000:668.766 JLINK_WriteReg(CFBP, 0x00000000)
T5604 000:668.770 - 0.006ms returns 0
T5604 000:668.775 JLINK_SetBPEx(Addr = 0x30000000, Type = 0xFFFFFFF2)
T5604 000:668.780 - 0.007ms returns 0x0000000C
T5604 000:668.785 JLINK_Go()
T5604 000:668.795   CPU_ReadMem(4 bytes @ 0xE0001000)
T5604 000:673.105 - 4.331ms
T5604 000:673.121 JLINK_IsHalted()
T5604 000:676.817   CPU_ReadMem(2 bytes @ 0x30000000)
T5604 000:677.457 - 4.343ms returns TRUE
T5604 000:677.475 JLINK_ReadReg(R15 (PC))
T5604 000:677.482 - 0.008ms returns 0x30000000
T5604 000:677.487 JLINK_ClrBPEx(BPHandle = 0x0000000C)
T5604 000:677.492 - 0.007ms returns 0x00
T5604 000:677.498 JLINK_ReadReg(R0)
T5604 000:677.518 - 0.021ms returns 0x00000001
T5604 000:677.524 JLINK_HasError()
T5604 000:677.529 JLINK_WriteReg(R0, 0x01007000)
T5604 000:677.534 - 0.007ms returns 0
T5604 000:677.539 JLINK_WriteReg(R1, 0x00001000)
T5604 000:677.544 - 0.006ms returns 0
T5604 000:677.549 JLINK_WriteReg(R2, 0x000000FF)
T5604 000:677.553 - 0.006ms returns 0
T5604 000:677.558 JLINK_WriteReg(R3, 0x00000000)
T5604 000:677.563 - 0.006ms returns 0
T5604 000:677.572 JLINK_WriteReg(R4, 0x00000000)
T5604 000:677.578 - 0.008ms returns 0
T5604 000:677.621 JLINK_WriteReg(R5, 0x00000000)
T5604 000:677.626 - 0.007ms returns 0
T5604 000:677.631 JLINK_WriteReg(R6, 0x00000000)
T5604 000:677.636 - 0.006ms returns 0
T5604 000:677.641 JLINK_WriteReg(R7, 0x00000000)
T5604 000:677.645 - 0.006ms returns 0
T5604 000:677.650 JLINK_WriteReg(R8, 0x00000000)
T5604 000:677.654 - 0.006ms returns 0
T5604 000:677.659 JLINK_WriteReg(R9, 0x30001E88)
T5604 000:677.664 - 0.012ms returns 0
T5604 000:677.676 JLINK_WriteReg(R10, 0x00000000)
T5604 000:677.680 - 0.006ms returns 0
T5604 000:677.726 JLINK_WriteReg(R11, 0x00000000)
T5604 000:677.734 - 0.010ms returns 0
T5604 000:677.740 JLINK_WriteReg(R12, 0x00000000)
T5604 000:677.748 - 0.027ms returns 0
T5604 000:677.772 JLINK_WriteReg(R13 (SP), 0x3000F000)
T5604 000:677.778 - 0.008ms returns 0
T5604 000:677.784 JLINK_WriteReg(R14, 0x30000001)
T5604 000:677.791 - 0.010ms returns 0
T5604 000:677.799 JLINK_WriteReg(R15 (PC), 0x30000078)
T5604 000:677.805 - 0.008ms returns 0
T5604 000:677.811 JLINK_WriteReg(XPSR, 0x01000000)
T5604 000:677.817 - 0.008ms returns 0
T5604 000:677.836 JLINK_WriteReg(MSP, 0x3000F000)
T5604 000:677.843 - 0.009ms returns 0
T5604 000:677.849 JLINK_WriteReg(PSP, 0x3000F000)
T5604 000:677.856 - 0.009ms returns 0
T5604 000:677.862 JLINK_WriteReg(CFBP, 0x00000000)
T5604 000:677.868 - 0.008ms returns 0
T5604 000:677.874 JLINK_SetBPEx(Addr = 0x30000000, Type = 0xFFFFFFF2)
T5604 000:677.882 - 0.010ms returns 0x0000000D
T5604 000:677.889 JLINK_Go()
T5604 000:677.901   CPU_ReadMem(4 bytes @ 0xE0001000)
T5604 000:682.084 - 4.206ms
T5604 000:682.100 JLINK_IsHalted()
T5604 000:682.776 - 0.685ms returns FALSE
T5604 000:682.791 JLINK_HasError()
T5604 000:683.933 JLINK_IsHalted()
T5604 000:684.529 - 0.599ms returns FALSE
T5604 000:684.535 JLINK_HasError()
T5604 000:685.942 JLINK_IsHalted()
T5604 000:686.571 - 0.632ms returns FALSE
T5604 000:686.578 JLINK_HasError()
T5604 000:687.951 JLINK_IsHalted()
T5604 000:688.560 - 0.612ms returns FALSE
T5604 000:688.567 JLINK_HasError()
T5604 000:689.959 JLINK_IsHalted()
T5604 000:690.528 - 0.572ms returns FALSE
T5604 000:690.534 JLINK_HasError()
T5604 000:691.980 JLINK_IsHalted()
T5604 000:692.744 - 0.769ms returns FALSE
T5604 000:692.753 JLINK_HasError()
T5604 000:694.051 JLINK_IsHalted()
T5604 000:697.777   CPU_ReadMem(2 bytes @ 0x30000000)
T5604 000:698.450 - 4.401ms returns TRUE
T5604 000:698.458 JLINK_ReadReg(R15 (PC))
T5604 000:698.464 - 0.008ms returns 0x30000000
T5604 000:698.469 JLINK_ClrBPEx(BPHandle = 0x0000000D)
T5604 000:698.474 - 0.006ms returns 0x00
T5604 000:698.479 JLINK_ReadReg(R0)
T5604 000:698.483 - 0.006ms returns 0x00000000
T5604 000:698.997 JLINK_HasError()
T5604 000:699.008 JLINK_WriteReg(R0, 0x01008000)
T5604 000:699.014 - 0.008ms returns 0
T5604 000:699.020 JLINK_WriteReg(R1, 0x00001000)
T5604 000:699.024 - 0.006ms returns 0
T5604 000:699.029 JLINK_WriteReg(R2, 0x000000FF)
T5604 000:699.033 - 0.006ms returns 0
T5604 000:699.039 JLINK_WriteReg(R3, 0x00000000)
T5604 000:699.043 - 0.006ms returns 0
T5604 000:699.048 JLINK_WriteReg(R4, 0x00000000)
T5604 000:699.053 - 0.006ms returns 0
T5604 000:699.057 JLINK_WriteReg(R5, 0x00000000)
T5604 000:699.062 - 0.006ms returns 0
T5604 000:699.066 JLINK_WriteReg(R6, 0x00000000)
T5604 000:699.070 - 0.006ms returns 0
T5604 000:699.075 JLINK_WriteReg(R7, 0x00000000)
T5604 000:699.079 - 0.006ms returns 0
T5604 000:699.084 JLINK_WriteReg(R8, 0x00000000)
T5604 000:699.088 - 0.006ms returns 0
T5604 000:699.093 JLINK_WriteReg(R9, 0x30001E88)
T5604 000:699.097 - 0.006ms returns 0
T5604 000:699.102 JLINK_WriteReg(R10, 0x00000000)
T5604 000:699.106 - 0.006ms returns 0
T5604 000:699.111 JLINK_WriteReg(R11, 0x00000000)
T5604 000:699.115 - 0.006ms returns 0
T5604 000:699.120 JLINK_WriteReg(R12, 0x00000000)
T5604 000:699.124 - 0.006ms returns 0
T5604 000:699.129 JLINK_WriteReg(R13 (SP), 0x3000F000)
T5604 000:699.134 - 0.006ms returns 0
T5604 000:699.138 JLINK_WriteReg(R14, 0x30000001)
T5604 000:699.146 - 0.011ms returns 0
T5604 000:699.153 JLINK_WriteReg(R15 (PC), 0x30000020)
T5604 000:699.157 - 0.006ms returns 0
T5604 000:699.162 JLINK_WriteReg(XPSR, 0x01000000)
T5604 000:699.166 - 0.006ms returns 0
T5604 000:699.172 JLINK_WriteReg(MSP, 0x3000F000)
T5604 000:699.176 - 0.006ms returns 0
T5604 000:699.181 JLINK_WriteReg(PSP, 0x3000F000)
T5604 000:699.185 - 0.006ms returns 0
T5604 000:699.190 JLINK_WriteReg(CFBP, 0x00000000)
T5604 000:699.194 - 0.006ms returns 0
T5604 000:699.199 JLINK_SetBPEx(Addr = 0x30000000, Type = 0xFFFFFFF2)
T5604 000:699.204 - 0.007ms returns 0x0000000E
T5604 000:699.209 JLINK_Go()
T5604 000:699.219   CPU_ReadMem(4 bytes @ 0xE0001000)
T5604 000:703.267 - 4.081ms
T5604 000:703.303 JLINK_IsHalted()
T5604 000:707.220   CPU_ReadMem(2 bytes @ 0x30000000)
T5604 000:708.032 - 4.737ms returns TRUE
T5604 000:708.049 JLINK_ReadReg(R15 (PC))
T5604 000:708.055 - 0.008ms returns 0x30000000
T5604 000:708.060 JLINK_ClrBPEx(BPHandle = 0x0000000E)
T5604 000:708.064 - 0.006ms returns 0x00
T5604 000:708.119 JLINK_ReadReg(R0)
T5604 000:708.124 - 0.007ms returns 0x00000001
T5604 000:708.129 JLINK_HasError()
T5604 000:708.134 JLINK_WriteReg(R0, 0x01008000)
T5604 000:708.140 - 0.007ms returns 0
T5604 000:708.144 JLINK_WriteReg(R1, 0x00001000)
T5604 000:708.149 - 0.006ms returns 0
T5604 000:708.154 JLINK_WriteReg(R2, 0x000000FF)
T5604 000:708.158 - 0.006ms returns 0
T5604 000:708.163 JLINK_WriteReg(R3, 0x00000000)
T5604 000:708.167 - 0.006ms returns 0
T5604 000:708.172 JLINK_WriteReg(R4, 0x00000000)
T5604 000:708.176 - 0.006ms returns 0
T5604 000:708.181 JLINK_WriteReg(R5, 0x00000000)
T5604 000:708.185 - 0.006ms returns 0
T5604 000:708.190 JLINK_WriteReg(R6, 0x00000000)
T5604 000:708.194 - 0.006ms returns 0
T5604 000:708.199 JLINK_WriteReg(R7, 0x00000000)
T5604 000:708.203 - 0.006ms returns 0
T5604 000:708.208 JLINK_WriteReg(R8, 0x00000000)
